             * d:\shounak\mix_signal_hacakthon\esim\final\final.cir
             Transient Analysis  Sat Oct 08 08:37:23  2022
--------------------------------------------------------------------------------
Index   time            v1#branch       v2#branch       v3#branch       
--------------------------------------------------------------------------------
0	0.000000e+00	0.000000e+00	-9.80439e-12	-9.80435e-12	
1	1.000000e-03	-3.42302e-14	-9.71460e-12	-9.72636e-12	
2	2.000000e-03	-2.80905e-14	-9.45478e-12	-9.45313e-12	
3	4.000000e-03	-1.43917e-14	-8.71482e-12	-8.68409e-12	
4	8.000000e-03	-4.93437e-15	-6.83437e-12	-6.78370e-12	
5	1.600000e-02	-7.29143e-15	-5.28015e-12	-5.23148e-12	
6	3.200000e-02	-1.41809e-14	-5.94491e-12	-5.90239e-12	
7	6.400000e-02	-2.99973e-14	-8.18743e-12	-8.17051e-12	
8	1.280000e-01	-1.74358e-13	-7.36086e-12	-7.57974e-12	
9	2.280000e-01	1.885599e-14	-8.07502e-12	-8.01291e-12	
10	3.280000e-01	4.451801e-14	-7.63600e-12	-7.63409e-12	
11	4.280000e-01	1.684082e-13	-8.17968e-12	-7.96948e-12	
12	5.280000e-01	-1.03215e-13	-4.66489e-12	-4.87528e-12	
13	6.280000e-01	3.217724e-13	-1.91952e-11	-1.87787e-11	
14	7.280000e-01	-1.89073e-13	-7.86662e-12	-8.15867e-12	
15	8.280000e-01	1.238785e-13	-1.59369e-11	-1.57109e-11	
16	9.280000e-01	-3.57665e-13	-9.33144e-12	-9.79277e-12	
17	1.028000e+00	2.637757e-13	-1.46217e-11	-1.42079e-11	
18	1.128000e+00	-4.03433e-13	-4.54138e-12	-5.04841e-12	
19	1.228000e+00	2.410907e-13	-9.56115e-12	-9.22151e-12	
20	1.328000e+00	-1.73694e-13	-6.17026e-12	-6.43951e-12	
21	1.428000e+00	3.842525e-13	-9.27945e-12	-8.80224e-12	
22	1.528000e+00	-3.15005e-13	-5.27850e-12	-5.74618e-12	
23	1.628000e+00	5.297285e-13	-2.12015e-11	-2.05362e-11	
24	1.728000e+00	-3.92007e-13	-6.02077e-12	-6.55521e-12	
25	1.828000e+00	3.242208e-13	-1.77952e-11	-1.73303e-11	
26	1.928000e+00	-5.59851e-13	-7.52338e-12	-8.22603e-12	
27	2.028000e+00	4.657611e-13	-1.25571e-11	-1.19020e-11	
28	2.128000e+00	-6.07492e-13	-4.84253e-12	-5.59474e-12	
29	2.228000e+00	4.476007e-13	-1.03872e-11	-9.79857e-12	
30	2.328000e+00	-3.80850e-13	-5.37114e-12	-5.89038e-12	
31	2.428000e+00	5.914811e-13	-1.03829e-11	-9.65557e-12	
32	2.528000e+00	-5.20268e-13	-4.21393e-12	-4.92818e-12	
33	2.540500e+00	4.820672e-14	-5.96123e-12	-5.93562e-12	
34	2.565500e+00	1.376847e-13	-5.69090e-12	-5.54405e-12	
35	2.571750e+00	1.209733e-13	-8.77302e-12	-8.65820e-12	
36	2.573313e+00	1.087360e-13	-1.08567e-11	-1.07608e-11	
37	2.576438e+00	2.261930e-14	-2.19247e-11	-2.19497e-11	
38	2.577219e+00	-3.59570e-14	-3.03826e-11	-3.04897e-11	
39	2.578781e+00	-4.60059e-13	-1.25695e-10	-1.26423e-10	
40	2.581906e+00	9.454875e-13	-2.43841e-12	-1.20761e-12	
41	2.584856e+00	-3.14672e-13	-4.48461e-11	-4.53417e-11	
42	2.589998e+00	4.711585e-13	9.620468e-12	1.022789e-11	
43	2.600282e+00	-9.53175e-14	-3.84582e-11	-3.86620e-11	
44	2.620849e+00	3.115375e-13	1.291757e-11	1.332141e-11	
45	2.661985e+00	-7.38816e-14	-3.79085e-11	-3.80724e-11	
46	2.744255e+00	1.535818e-13	1.315296e-11	1.338794e-11	
47	2.844255e+00	-2.60956e-13	-3.75667e-11	-3.79125e-11	
48	2.944255e+00	2.647021e-14	1.324936e-11	1.335983e-11	
49	3.044255e+00	-9.46576e-14	-3.91759e-11	-3.92915e-11	
50	3.144255e+00	-8.86702e-14	1.137276e-11	1.132733e-11	
51	3.244255e+00	-2.30313e-14	1.108467e-11	1.102226e-11	
52	3.344255e+00	1.056876e-13	-2.40624e-12	-2.26776e-12	
53	3.444255e+00	1.070431e-13	8.369638e-12	8.451515e-12	
54	3.456755e+00	8.143427e-15	-5.37651e-12	-5.44469e-12	

Index   time            v1#branch       v2#branch       v3#branch       
--------------------------------------------------------------------------------
55	3.481755e+00	3.375615e-15	-6.99397e-12	-7.03822e-12	
56	3.531755e+00	8.016335e-14	-5.28978e-12	-5.20205e-12	
57	3.631755e+00	1.451221e-13	-1.85012e-11	-1.83748e-11	
58	3.731755e+00	-1.97438e-14	-8.41310e-12	-8.42217e-12	
59	3.831755e+00	-5.41680e-14	-1.53982e-11	-1.54639e-11	
60	3.931755e+00	-1.81364e-13	-9.81553e-12	-9.98712e-12	
61	4.031755e+00	9.448059e-14	-1.53209e-11	-1.51864e-11	
62	4.131755e+00	-2.44190e-13	-4.47561e-12	-4.71816e-12	
63	4.231755e+00	9.137036e-14	-9.07749e-12	-8.99158e-12	
64	4.331755e+00	-1.78893e-14	-6.48280e-12	-6.49337e-12	
65	4.431755e+00	2.286098e-13	-8.76750e-12	-8.54751e-12	
66	4.531755e+00	-1.61819e-13	-5.46593e-12	-5.68137e-12	
67	4.544255e+00	6.793731e-14	-5.71066e-12	-5.65264e-12	
68	4.569255e+00	1.309292e-13	-6.77389e-12	-6.64608e-12	
69	4.575505e+00	2.450903e-14	-5.19039e-11	-5.19399e-11	
70	4.588005e+00	3.258603e-13	-3.34005e-12	-2.94375e-12	
71	4.613005e+00	-4.99425e-14	-1.98076e-11	-1.99281e-11	
72	4.649546e+00	2.739713e-13	-5.43691e-12	-5.09845e-12	
73	4.722627e+00	-1.45266e-13	-1.93176e-11	-1.95324e-11	
74	4.822627e+00	7.922338e-14	-5.21188e-12	-5.06828e-12	
75	4.922627e+00	-3.09843e-13	-1.90702e-11	-1.94454e-11	
76	5.022627e+00	2.008778e-13	-6.24528e-12	-5.94161e-12	
77	5.122627e+00	-3.28237e-13	-3.99568e-12	-4.37354e-12	
78	5.222627e+00	1.544380e-13	-9.98172e-12	-9.78384e-12	
79	5.322627e+00	-9.47191e-14	-4.35679e-12	-4.48967e-12	
80	5.422627e+00	3.021957e-13	-1.00455e-11	-9.71026e-12	
81	5.522627e+00	-2.21491e-13	-3.40067e-12	-3.70587e-12	
82	5.535127e+00	2.087918e-14	-5.60536e-12	-5.62634e-12	
83	5.560127e+00	1.404219e-13	-5.54989e-12	-5.38565e-12	
84	5.566377e+00	1.164447e-13	-6.25936e-12	-6.14703e-12	
85	5.578877e+00	3.196207e-14	-5.19289e-11	-5.19582e-11	
86	5.603877e+00	2.936536e-13	9.012681e-13	1.261464e-12	
87	5.645801e+00	-6.31552e-14	-2.23940e-11	-2.25289e-11	
88	5.729648e+00	1.753283e-13	-3.49283e-12	-3.25435e-12	
89	5.829648e+00	-2.47307e-13	-2.05156e-11	-2.08281e-11	
90	5.929648e+00	1.300453e-14	-4.22335e-12	-4.14629e-12	
91	6.029648e+00	-1.04791e-13	-2.10426e-11	-2.11661e-11	
92	6.129648e+00	-4.55999e-14	-5.11096e-12	-5.09577e-12	
93	6.229648e+00	-9.93526e-14	-6.16350e-12	-6.32056e-12	
94	6.329648e+00	1.566929e-13	-7.49597e-12	-7.28566e-12	
95	6.429648e+00	6.132017e-14	-6.79562e-12	-6.78456e-12	
96	6.529648e+00	-2.57274e-15	-1.49257e-11	-1.49528e-11	
97	6.629648e+00	2.324815e-13	-1.33523e-11	-1.30995e-11	
98	6.729648e+00	-1.01913e-13	-1.07128e-11	-1.08423e-11	
99	6.829648e+00	2.213213e-14	-1.50194e-11	-1.49747e-11	
100	6.929648e+00	-2.48960e-13	-8.73711e-12	-9.00686e-12	
101	7.029648e+00	1.562602e-13	-1.73361e-11	-1.71142e-11	
102	7.129648e+00	-3.04277e-13	-4.04666e-12	-4.37282e-12	
103	7.229648e+00	1.528513e-13	-8.23175e-12	-8.05750e-12	
104	7.329648e+00	-8.89005e-14	-6.03145e-12	-6.14253e-12	
105	7.429648e+00	3.033193e-13	-8.43981e-12	-8.11373e-12	
106	7.529648e+00	-2.39518e-13	-4.46970e-12	-4.79804e-12	
107	7.542148e+00	7.091231e-14	-5.31365e-12	-5.24857e-12	
108	7.567148e+00	8.763455e-14	-3.47941e-11	-3.47357e-11	
109	7.617148e+00	1.886300e-13	-2.20895e-12	-1.99330e-12	
110	7.717148e+00	-3.73972e-14	-2.21731e-11	-2.22455e-11	
111	7.817148e+00	-1.84396e-14	-4.65832e-12	-4.64724e-12	
112	7.917148e+00	-1.95308e-13	-1.89648e-11	-1.91857e-11	

Index   time            v1#branch       v2#branch       v3#branch       
--------------------------------------------------------------------------------
113	8.017148e+00	7.734623e-14	-7.18768e-12	-7.05371e-12	
114	8.117148e+00	-1.95688e-13	-5.86852e-12	-6.06161e-12	
115	8.217148e+00	1.743667e-14	-8.84597e-12	-8.83399e-12	
116	8.317148e+00	2.424964e-14	-6.31910e-12	-6.28747e-12	
117	8.417148e+00	1.870536e-13	-8.63616e-12	-8.45832e-12	
118	8.517148e+00	-1.16677e-13	-3.61410e-12	-3.78453e-12	
119	8.529648e+00	5.467878e-14	-5.10181e-12	-5.05933e-12	
120	8.532773e+00	6.477736e-14	-5.20580e-12	-5.14840e-12	
121	8.539023e+00	7.409781e-14	-6.06481e-12	-5.99667e-12	
122	8.540586e+00	7.323909e-14	-6.67871e-12	-6.61204e-12	
123	8.543711e+00	7.287164e-14	-9.13621e-12	-9.07359e-12	
124	8.549961e+00	-5.66802e-14	-7.81591e-11	-7.83369e-11	
125	8.562461e+00	3.189152e-13	5.302853e-12	5.756841e-12	
126	8.577792e+00	-4.48251e-14	-2.47751e-11	-2.49475e-11	
127	8.608456e+00	2.891760e-13	3.942764e-13	8.007708e-13	
128	8.667702e+00	-7.19875e-14	-2.53948e-11	-2.55883e-11	
129	8.767702e+00	1.253728e-13	8.070960e-13	1.047630e-12	
130	8.867702e+00	-2.73809e-13	-2.51871e-11	-2.55773e-11	
131	8.967702e+00	5.994956e-14	8.919516e-13	1.068173e-12	
132	9.067702e+00	-1.10998e-13	-2.71365e-11	-2.72828e-11	
133	9.167702e+00	-1.01417e-13	-4.32715e-13	-4.93293e-13	
134	9.267702e+00	3.589706e-14	-1.40831e-12	-1.41157e-12	
135	9.367702e+00	9.861521e-14	-9.81157e-12	-9.67771e-12	
136	9.467702e+00	6.744396e-14	-2.05876e-12	-2.05178e-12	
137	9.480202e+00	1.584322e-15	-4.92785e-12	-4.99056e-12	
138	9.505202e+00	3.134563e-14	-5.51656e-12	-5.50587e-12	
139	9.511452e+00	5.300361e-14	-5.30543e-12	-5.26094e-12	
140	9.523952e+00	6.507175e-14	-6.49874e-12	-6.43706e-12	
141	9.527077e+00	6.100107e-14	-8.76890e-12	-8.71543e-12	
142	9.533327e+00	-4.31272e-14	-7.87397e-11	-7.89071e-11	
143	9.545827e+00	2.434763e-13	5.697111e-12	6.079593e-12	
144	9.561118e+00	-3.53938e-14	-2.50562e-11	-2.52233e-11	
145	9.591701e+00	2.705387e-13	7.002460e-13	1.092146e-12	
146	9.650578e+00	-3.16968e-14	-2.57264e-11	-2.58837e-11	
147	9.750578e+00	1.210983e-13	1.107578e-12	1.347574e-12	
148	9.850578e+00	-2.35598e-13	-2.55133e-11	-2.58692e-11	
149	9.950578e+00	7.785420e-15	1.233219e-12	1.361489e-12	
150	1.005058e+01	-6.67563e-14	-2.73472e-11	-2.74614e-11	
151	1.015058e+01	-1.27847e-13	-2.24881e-13	-2.91819e-13	
152	1.025058e+01	2.640490e-14	-1.44349e-12	-1.47560e-12	
153	1.035058e+01	7.278380e-14	-9.94218e-12	-9.81551e-12	
154	1.045058e+01	1.276707e-13	-3.22923e-12	-3.15751e-12	
155	1.046308e+01	4.022189e-15	-5.66063e-12	-5.73223e-12	
156	1.048808e+01	8.894533e-15	-6.88246e-12	-6.91248e-12	
157	1.053808e+01	9.003065e-14	-5.32913e-12	-5.22822e-12	
158	1.063808e+01	1.410607e-13	-1.85461e-11	-1.84268e-11	
159	1.073808e+01	-2.84531e-14	-8.30460e-12	-8.31960e-12	
160	1.083808e+01	-5.86248e-14	-1.54988e-11	-1.55717e-11	
161	1.093808e+01	-1.77393e-13	-9.69837e-12	-9.86317e-12	
162	1.103808e+01	1.012797e-13	-1.55996e-11	-1.54531e-11	
163	1.113808e+01	-2.64424e-13	-4.34017e-12	-4.61610e-12	
164	1.123808e+01	1.237310e-13	-9.05971e-12	-8.92848e-12	
165	1.133808e+01	-3.64205e-14	-6.42313e-12	-6.46515e-12	
166	1.143808e+01	2.429103e-13	-8.72214e-12	-8.47541e-12	
167	1.153808e+01	-1.73833e-13	-5.57809e-12	-5.81729e-12	
168	1.155058e+01	7.434828e-14	-5.84282e-12	-5.77876e-12	
169	1.157558e+01	1.459003e-13	-6.04379e-12	-5.90065e-12	
170	1.162558e+01	1.002438e-13	-2.41339e-11	-2.40480e-11	

Index   time            v1#branch       v2#branch       v3#branch       
--------------------------------------------------------------------------------
171	1.172558e+01	4.247662e-14	-5.22099e-12	-5.17175e-12	
172	1.182558e+01	-1.06109e-13	-1.86576e-11	-1.87725e-11	
173	1.192558e+01	-1.29936e-13	-7.38026e-12	-7.50429e-12	
174	1.202558e+01	3.290706e-14	-1.74246e-11	-1.73537e-11	
175	1.212558e+01	-1.69208e-13	-4.00630e-12	-4.16504e-12	
176	1.222558e+01	5.910893e-15	-8.59484e-12	-8.60247e-12	
177	1.232558e+01	5.258007e-14	-6.41410e-12	-6.34689e-12	
178	1.242558e+01	1.612802e-13	-8.39826e-12	-8.25218e-12	
179	1.252558e+01	-9.58375e-14	-5.36456e-12	-5.50876e-12	
180	1.262558e+01	3.125191e-13	-2.14252e-11	-2.10778e-11	
181	1.272558e+01	-1.69636e-13	-5.62758e-12	-5.83890e-12	
182	1.282558e+01	1.058883e-13	-1.82073e-11	-1.80619e-11	
183	1.292558e+01	-3.40577e-13	-7.03856e-12	-7.42076e-12	
184	1.302558e+01	2.411829e-13	-1.78507e-11	-1.75251e-11	
185	1.312558e+01	-3.76822e-13	-3.13007e-12	-3.54274e-12	
186	1.322558e+01	2.126406e-13	-9.45664e-12	-9.21156e-12	
187	1.332558e+01	-1.53390e-13	-5.43171e-12	-5.61608e-12	
188	1.342558e+01	3.665708e-13	-9.32649e-12	-8.93011e-12	
189	1.352558e+01	-2.99725e-13	-4.55498e-12	-4.94652e-12	
190	1.362558e+01	5.147387e-13	-2.24072e-11	-2.18156e-11	
191	1.372558e+01	-3.69878e-13	-4.48108e-12	-4.93400e-12	
192	1.382558e+01	3.052282e-13	-1.93707e-11	-1.89849e-11	
193	1.392558e+01	-5.40152e-13	-5.81124e-12	-6.43413e-12	
194	1.402558e+01	4.404320e-13	-1.66278e-11	-1.60615e-11	
195	1.412558e+01	-5.76176e-13	-2.67589e-12	-3.32998e-12	
196	1.422558e+01	4.116005e-13	-1.05767e-11	-1.00911e-11	
197	1.432558e+01	-3.51173e-13	-4.40628e-12	-4.82948e-12	
198	1.442558e+01	5.633583e-13	-1.05095e-11	-9.87586e-12	
199	1.452558e+01	-4.94524e-13	-3.52159e-12	-4.14660e-12	
200	1.462558e+01	7.071675e-13	-2.34440e-11	-2.26233e-11	
201	1.472558e+01	-5.62706e-13	-3.36934e-12	-4.05187e-12	
202	1.482558e+01	4.987822e-13	-2.04850e-11	-1.98687e-11	
203	1.492558e+01	-7.33402e-13	-4.67244e-12	-5.52540e-12	
204	1.502558e+01	6.338249e-13	-1.43983e-11	-1.36012e-11	
205	1.512558e+01	-7.70925e-13	-3.31450e-12	-4.20195e-12	
206	1.522558e+01	6.076002e-13	-1.16877e-11	-1.09668e-11	
207	1.532558e+01	-5.46725e-13	-3.76906e-12	-4.42690e-12	
208	1.542558e+01	7.582137e-13	-1.18062e-11	-1.09392e-11	
209	1.552558e+01	-6.86661e-13	-2.55206e-12	-3.40537e-12	
210	1.553808e+01	4.544087e-14	-5.95655e-12	-5.93485e-12	
211	1.556308e+01	1.328431e-13	-5.71485e-12	-5.57161e-12	
212	1.556933e+01	1.159642e-13	-9.17588e-12	-9.06659e-12	
213	1.558183e+01	4.133385e-14	-5.03401e-11	-5.03546e-11	
214	1.560683e+01	2.836522e-13	2.756783e-13	6.206773e-13	
215	1.565050e+01	-5.87653e-14	-2.20088e-11	-2.21344e-11	
216	1.573784e+01	1.574079e-13	-3.86601e-12	-3.65048e-12	
217	1.583784e+01	-2.45765e-13	-2.01076e-11	-2.04130e-11	
218	1.593784e+01	1.056522e-14	-4.65367e-12	-4.58450e-12	
219	1.603784e+01	-8.77475e-14	-2.08409e-11	-2.09315e-11	
220	1.613784e+01	-7.97670e-14	-4.93298e-12	-4.97788e-12	
221	1.623784e+01	-5.08245e-14	-6.18621e-12	-6.26996e-12	
222	1.633784e+01	1.274224e-13	-7.35611e-12	-7.19889e-12	
223	1.643784e+01	8.474495e-14	-6.88679e-12	-6.82933e-12	
224	1.653784e+01	-2.17318e-14	-5.69917e-12	-5.76295e-12	
225	1.663784e+01	2.547968e-13	-2.14820e-11	-2.11944e-11	
226	1.673784e+01	-1.39063e-13	-4.11683e-12	-4.29599e-12	
227	1.683784e+01	4.923951e-14	-1.99069e-11	-1.98195e-11	
228	1.693784e+01	-2.84414e-13	-4.78365e-12	-5.10718e-12	

Index   time            v1#branch       v2#branch       v3#branch       
--------------------------------------------------------------------------------
229	1.703784e+01	2.066482e-13	-2.06808e-11	-2.03784e-11	
230	1.713784e+01	-3.71356e-13	-3.56916e-12	-4.00379e-12	
231	1.723784e+01	2.352542e-13	-7.93510e-12	-7.63758e-12	
232	1.733784e+01	-1.53784e-13	-5.95043e-12	-6.16715e-12	
233	1.743784e+01	3.632937e-13	-8.33947e-12	-7.91303e-12	
234	1.753784e+01	-2.96965e-13	-4.47240e-12	-4.89684e-12	
235	1.763784e+01	5.265191e-13	-2.26719e-11	-2.20307e-11	
236	1.773784e+01	-4.03325e-13	-3.30438e-12	-3.82781e-12	
237	1.783784e+01	3.097155e-13	-2.06597e-11	-2.02332e-11	
238	1.793784e+01	-5.47266e-13	-4.16627e-12	-4.83218e-12	
239	1.803784e+01	4.693165e-13	-1.59843e-11	-1.53389e-11	
240	1.813784e+01	-6.34020e-13	-3.24810e-12	-4.02628e-12	
241	1.823784e+01	4.955535e-13	-1.00291e-11	-9.39177e-12	
242	1.833784e+01	-4.09742e-13	-4.35904e-12	-4.90909e-12	
243	1.843784e+01	6.165460e-13	-1.01635e-11	-9.40837e-12	
244	1.853784e+01	-5.46173e-13	-3.21428e-12	-3.95954e-12	
245	1.863784e+01	7.708048e-13	-2.38874e-11	-2.29339e-11	
246	1.873784e+01	-6.48064e-13	-2.37792e-12	-3.21438e-12	
247	1.883784e+01	5.559211e-13	-2.15231e-11	-2.07814e-11	
248	1.893784e+01	-7.93412e-13	-3.42533e-12	-4.40629e-12	
249	1.903784e+01	7.158552e-13	-1.01108e-11	-9.14873e-12	
250	1.913784e+01	-8.81525e-13	-4.13726e-12	-5.23436e-12	
251	1.923784e+01	7.435489e-13	-1.15299e-11	-1.05730e-11	
252	1.933784e+01	-6.56156e-13	-3.87584e-12	-4.74303e-12	
253	1.943784e+01	8.614974e-13	-1.18688e-11	-1.07992e-11	
254	1.953784e+01	-7.84864e-13	-2.42462e-12	-3.47368e-12	
255	1.963784e+01	1.002164e-12	-2.44837e-11	-2.32384e-11	
256	1.973784e+01	-8.83637e-13	-1.91273e-12	-3.04613e-12	
257	1.983784e+01	7.952030e-13	-2.19448e-11	-2.09014e-11	
258	1.993784e+01	-1.03133e-12	-3.07281e-12	-4.35392e-12	
259	2.000000e+01	9.172983e-13	-2.10629e-11	-1.98752e-11	
